              * c:\users\shanthipriya\esim-workspace\7447\7447.cir
              Transient Analysis  Thu May 29 22:54:01  2025
--------------------------------------------------------------------------------
Index   time            a               b               c               
--------------------------------------------------------------------------------
0	0.000000e+00	5.000000e+00	5.000000e+00	5.000000e+00	
1	1.000000e-11	5.000000e+00	5.000000e+00	5.000000e+00	
2	2.000000e-11	5.000000e+00	5.000000e+00	5.000000e+00	
3	4.000000e-11	5.000000e+00	5.000000e+00	5.000000e+00	
4	8.000000e-11	5.000000e+00	5.000000e+00	5.000000e+00	
5	1.600000e-10	5.000000e+00	5.000000e+00	5.000000e+00	
6	3.200000e-10	5.000000e+00	5.000000e+00	5.000000e+00	
7	6.400000e-10	5.000000e+00	5.000000e+00	5.000000e+00	
8	1.000000e-09	5.000000e+00	5.000000e+00	5.000000e+00	
9	1.064000e-09	5.000000e+00	5.000000e+00	5.000000e+00	
10	1.192000e-09	5.000000e+00	5.000000e+00	5.000000e+00	
11	1.448000e-09	5.000000e+00	5.000000e+00	5.000000e+00	
12	1.960000e-09	5.000000e+00	5.000000e+00	5.000000e+00	
13	2.984000e-09	5.000000e+00	5.000000e+00	5.000000e+00	
14	5.032000e-09	5.000000e+00	5.000000e+00	5.000000e+00	
15	5.320000e-09	5.000000e+00	5.000000e+00	5.000000e+00	
16	5.330000e-09	5.000000e+00	5.000000e+00	5.000000e+00	
17	5.350000e-09	5.000000e+00	5.000000e+00	5.000000e+00	
18	5.390000e-09	5.000000e+00	5.000000e+00	5.000000e+00	
19	5.420000e-09	5.000000e+00	5.000000e+00	5.000000e+00	
20	5.428000e-09	5.000000e+00	5.000000e+00	5.000000e+00	
21	5.444000e-09	5.000000e+00	5.000000e+00	5.000000e+00	
22	5.476000e-09	5.000000e+00	5.000000e+00	5.000000e+00	
23	5.540000e-09	5.000000e+00	5.000000e+00	5.000000e+00	
24	5.640000e-09	5.000000e+00	5.000000e+00	5.000000e+00	
25	5.652800e-09	5.000000e+00	5.000000e+00	5.000000e+00	
26	5.678400e-09	5.000000e+00	5.000000e+00	5.000000e+00	
27	5.729600e-09	5.000000e+00	5.000000e+00	5.000000e+00	
28	5.832000e-09	5.000000e+00	5.000000e+00	5.000000e+00	
29	6.036800e-09	5.000000e+00	5.000000e+00	5.000000e+00	
30	6.220000e-09	5.000000e+00	5.000000e+00	5.000000e+00	
31	6.230000e-09	5.000000e+00	5.000000e+00	5.000000e+00	
32	6.250000e-09	5.000000e+00	5.000000e+00	5.000000e+00	
33	6.290000e-09	5.000000e+00	5.000000e+00	5.000000e+00	
34	6.320000e-09	5.000000e+00	5.000000e+00	5.000000e+00	
35	6.328000e-09	4.960000e+00	4.960000e+00	4.960000e+00	
36	6.344000e-09	4.880000e+00	4.880000e+00	4.880000e+00	
37	6.376000e-09	4.720000e+00	4.720000e+00	4.720000e+00	
38	6.440000e-09	4.400000e+00	4.400000e+00	4.400000e+00	
39	6.540000e-09	3.900000e+00	3.900000e+00	3.900000e+00	
40	6.552800e-09	3.836000e+00	3.836000e+00	3.836000e+00	
41	6.578400e-09	3.708000e+00	3.708000e+00	3.708000e+00	
42	6.629600e-09	3.452000e+00	3.452000e+00	3.452000e+00	
43	6.640000e-09	3.400000e+00	3.400000e+00	3.400000e+00	
44	6.650240e-09	3.451200e+00	3.451200e+00	3.348800e+00	
45	6.670720e-09	3.553600e+00	3.553600e+00	3.246400e+00	
46	6.711680e-09	3.758400e+00	3.758400e+00	3.041600e+00	
47	6.793600e-09	4.168000e+00	4.168000e+00	2.632000e+00	
48	6.957440e-09	4.987200e+00	4.987200e+00	1.812800e+00	
49	6.960000e-09	5.000000e+00	5.000000e+00	1.800000e+00	
50	6.964000e-09	5.000000e+00	5.000000e+00	1.780000e+00	
51	6.972000e-09	5.000000e+00	5.000000e+00	1.740000e+00	
52	6.988000e-09	5.000000e+00	5.000000e+00	1.660000e+00	
53	7.000000e-09	5.000000e+00	5.000000e+00	1.600000e+00	
54	7.003200e-09	5.000000e+00	5.000000e+00	1.584000e+00	

Index   time            a               b               c               
--------------------------------------------------------------------------------
55	7.009600e-09	5.000000e+00	5.000000e+00	1.552000e+00	
56	7.022400e-09	5.000000e+00	5.000000e+00	1.488000e+00	
57	7.048000e-09	5.000000e+00	5.000000e+00	1.360000e+00	
58	7.099200e-09	5.000000e+00	5.000000e+00	1.104000e+00	
59	7.100000e-09	5.000000e+00	5.000000e+00	1.100000e+00	
60	7.101600e-09	5.000000e+00	5.000000e+00	1.092000e+00	
61	7.104800e-09	5.000000e+00	5.000000e+00	1.076000e+00	
62	7.111200e-09	5.000000e+00	5.000000e+00	1.044000e+00	
63	7.124000e-09	5.000000e+00	5.000000e+00	9.800000e-01	
64	7.149600e-09	5.000000e+00	5.000000e+00	8.520000e-01	
65	7.200800e-09	5.000000e+00	5.000000e+00	5.960000e-01	
66	7.220000e-09	5.000000e+00	5.000000e+00	5.000000e-01	
67	7.230000e-09	5.000000e+00	5.000000e+00	4.500000e-01	
68	7.250000e-09	5.000000e+00	5.000000e+00	3.500000e-01	
69	7.290000e-09	5.000000e+00	5.000000e+00	1.500000e-01	
70	7.320000e-09	5.000000e+00	5.000000e+00	2.747802e-15	
71	7.323000e-09	4.985000e+00	4.985000e+00	0.000000e+00	
72	7.329000e-09	4.955000e+00	4.955000e+00	0.000000e+00	
73	7.341000e-09	4.895000e+00	4.895000e+00	0.000000e+00	
74	7.365000e-09	4.775000e+00	4.775000e+00	0.000000e+00	
75	7.413000e-09	4.535000e+00	4.535000e+00	0.000000e+00	
76	7.509000e-09	4.055000e+00	4.055000e+00	0.000000e+00	
77	7.640000e-09	3.400000e+00	3.400000e+00	0.000000e+00	
78	7.659200e-09	3.304000e+00	3.304000e+00	0.000000e+00	
79	7.697600e-09	3.112000e+00	3.112000e+00	0.000000e+00	
80	7.774400e-09	2.728000e+00	2.728000e+00	0.000000e+00	
81	7.928000e-09	1.960000e+00	1.960000e+00	0.000000e+00	
82	8.220000e-09	5.000000e-01	5.000000e-01	0.000000e+00	
83	8.230000e-09	4.500000e-01	4.500000e-01	0.000000e+00	
84	8.250000e-09	3.500000e-01	3.500000e-01	0.000000e+00	
85	8.290000e-09	1.500000e-01	1.500000e-01	0.000000e+00	
86	8.320000e-09	1.942890e-15	1.942890e-15	0.000000e+00	
87	8.328000e-09	0.000000e+00	0.000000e+00	0.000000e+00	
88	8.344000e-09	0.000000e+00	0.000000e+00	0.000000e+00	
89	8.376000e-09	0.000000e+00	0.000000e+00	0.000000e+00	
90	8.440000e-09	0.000000e+00	0.000000e+00	0.000000e+00	
91	8.568000e-09	0.000000e+00	0.000000e+00	0.000000e+00	
92	8.824000e-09	0.000000e+00	0.000000e+00	0.000000e+00	
93	9.336000e-09	0.000000e+00	0.000000e+00	0.000000e+00	
94	1.036000e-08	0.000000e+00	0.000000e+00	0.000000e+00	
95	1.240800e-08	0.000000e+00	0.000000e+00	0.000000e+00	
96	1.650400e-08	0.000000e+00	0.000000e+00	0.000000e+00	
97	2.469600e-08	0.000000e+00	0.000000e+00	0.000000e+00	
98	4.108000e-08	0.000000e+00	0.000000e+00	0.000000e+00	
99	7.384800e-08	0.000000e+00	0.000000e+00	0.000000e+00	
100	1.393840e-07	0.000000e+00	0.000000e+00	0.000000e+00	
101	2.704560e-07	0.000000e+00	0.000000e+00	0.000000e+00	
102	5.326000e-07	0.000000e+00	0.000000e+00	0.000000e+00	
103	1.056888e-06	0.000000e+00	0.000000e+00	0.000000e+00	
104	2.105464e-06	0.000000e+00	0.000000e+00	0.000000e+00	
105	4.202616e-06	0.000000e+00	0.000000e+00	0.000000e+00	
106	8.396920e-06	0.000000e+00	0.000000e+00	0.000000e+00	
107	1.678553e-05	0.000000e+00	0.000000e+00	0.000000e+00	
108	3.356274e-05	0.000000e+00	0.000000e+00	0.000000e+00	
109	6.711718e-05	0.000000e+00	0.000000e+00	0.000000e+00	
110	1.342260e-04	0.000000e+00	0.000000e+00	0.000000e+00	
111	2.684438e-04	0.000000e+00	0.000000e+00	0.000000e+00	
112	5.368792e-04	0.000000e+00	0.000000e+00	0.000000e+00	

Index   time            a               b               c               
--------------------------------------------------------------------------------
113	1.073750e-03	0.000000e+00	0.000000e+00	0.000000e+00	
114	1.713750e-03	0.000000e+00	0.000000e+00	0.000000e+00	
115	2.000001e-03	0.000000e+00	0.000000e+00	0.000000e+00	
116	2.000001e-03	0.000000e+00	0.000000e+00	0.000000e+00	
117	2.000001e-03	0.000000e+00	0.000000e+00	0.000000e+00	
118	2.000002e-03	0.000000e+00	0.000000e+00	0.000000e+00	
119	2.000002e-03	0.000000e+00	0.000000e+00	0.000000e+00	
120	2.000002e-03	0.000000e+00	0.000000e+00	0.000000e+00	
121	2.000002e-03	0.000000e+00	0.000000e+00	0.000000e+00	
122	2.000003e-03	0.000000e+00	0.000000e+00	0.000000e+00	
123	2.000003e-03	0.000000e+00	0.000000e+00	0.000000e+00	
124	2.000004e-03	0.000000e+00	0.000000e+00	0.000000e+00	
125	2.000007e-03	0.000000e+00	0.000000e+00	0.000000e+00	
126	2.000007e-03	0.000000e+00	0.000000e+00	0.000000e+00	
127	2.000007e-03	0.000000e+00	0.000000e+00	0.000000e+00	
128	2.000007e-03	0.000000e+00	0.000000e+00	0.000000e+00	
129	2.000007e-03	0.000000e+00	0.000000e+00	0.000000e+00	
130	2.000007e-03	0.000000e+00	0.000000e+00	0.000000e+00	
131	2.000007e-03	0.000000e+00	0.000000e+00	0.000000e+00	
132	2.000007e-03	0.000000e+00	0.000000e+00	0.000000e+00	
133	2.000007e-03	0.000000e+00	0.000000e+00	0.000000e+00	
134	2.000007e-03	0.000000e+00	0.000000e+00	0.000000e+00	
135	2.000007e-03	0.000000e+00	0.000000e+00	0.000000e+00	
136	2.000007e-03	0.000000e+00	0.000000e+00	0.000000e+00	
137	2.000007e-03	0.000000e+00	0.000000e+00	0.000000e+00	
138	2.000007e-03	0.000000e+00	0.000000e+00	0.000000e+00	
139	2.000007e-03	0.000000e+00	0.000000e+00	0.000000e+00	
140	2.000008e-03	0.000000e+00	0.000000e+00	0.000000e+00	
141	2.000008e-03	0.000000e+00	0.000000e+00	0.000000e+00	
142	2.000008e-03	0.000000e+00	0.000000e+00	0.000000e+00	
143	2.000008e-03	0.000000e+00	0.000000e+00	0.000000e+00	
144	2.000008e-03	0.000000e+00	0.000000e+00	0.000000e+00	
145	2.000008e-03	0.000000e+00	0.000000e+00	0.000000e+00	
146	2.000008e-03	0.000000e+00	0.000000e+00	0.000000e+00	
147	2.000008e-03	0.000000e+00	0.000000e+00	0.000000e+00	
148	2.000008e-03	0.000000e+00	0.000000e+00	0.000000e+00	
149	2.000008e-03	0.000000e+00	0.000000e+00	0.000000e+00	
150	2.000008e-03	0.000000e+00	0.000000e+00	0.000000e+00	
151	2.000008e-03	0.000000e+00	0.000000e+00	0.000000e+00	
152	2.000008e-03	0.000000e+00	0.000000e+00	0.000000e+00	
153	2.000008e-03	0.000000e+00	0.000000e+00	0.000000e+00	
154	2.000008e-03	0.000000e+00	0.000000e+00	0.000000e+00	
155	2.000008e-03	0.000000e+00	0.000000e+00	0.000000e+00	
156	2.000008e-03	0.000000e+00	0.000000e+00	0.000000e+00	
157	2.000008e-03	0.000000e+00	0.000000e+00	0.000000e+00	
158	2.000008e-03	0.000000e+00	0.000000e+00	0.000000e+00	
159	2.000009e-03	0.000000e+00	0.000000e+00	0.000000e+00	
160	2.000009e-03	0.000000e+00	0.000000e+00	0.000000e+00	
161	2.000009e-03	0.000000e+00	0.000000e+00	0.000000e+00	
162	2.000009e-03	0.000000e+00	0.000000e+00	0.000000e+00	
163	2.000009e-03	0.000000e+00	0.000000e+00	0.000000e+00	
164	2.000010e-03	0.000000e+00	0.000000e+00	0.000000e+00	
165	2.000010e-03	0.000000e+00	0.000000e+00	0.000000e+00	
166	2.000012e-03	0.000000e+00	0.000000e+00	0.000000e+00	
167	2.000015e-03	0.000000e+00	0.000000e+00	0.000000e+00	
168	2.000022e-03	0.000000e+00	0.000000e+00	0.000000e+00	
169	2.000035e-03	0.000000e+00	0.000000e+00	0.000000e+00	
170	2.000061e-03	0.000000e+00	0.000000e+00	0.000000e+00	

Index   time            a               b               c               
--------------------------------------------------------------------------------
171	2.000114e-03	0.000000e+00	0.000000e+00	0.000000e+00	
172	2.000219e-03	0.000000e+00	0.000000e+00	0.000000e+00	
173	2.000428e-03	0.000000e+00	0.000000e+00	0.000000e+00	
174	2.000848e-03	0.000000e+00	0.000000e+00	0.000000e+00	
175	2.001687e-03	0.000000e+00	0.000000e+00	0.000000e+00	
176	2.003364e-03	0.000000e+00	0.000000e+00	0.000000e+00	
177	2.006720e-03	0.000000e+00	0.000000e+00	0.000000e+00	
178	2.013431e-03	0.000000e+00	0.000000e+00	0.000000e+00	
179	2.026852e-03	0.000000e+00	0.000000e+00	0.000000e+00	
180	2.053696e-03	0.000000e+00	0.000000e+00	0.000000e+00	
181	2.107383e-03	0.000000e+00	0.000000e+00	0.000000e+00	
182	2.214757e-03	0.000000e+00	0.000000e+00	0.000000e+00	
183	2.429506e-03	0.000000e+00	0.000000e+00	0.000000e+00	
184	2.859002e-03	0.000000e+00	0.000000e+00	0.000000e+00	
185	3.499002e-03	0.000000e+00	0.000000e+00	0.000000e+00	
186	4.000000e-03	0.000000e+00	0.000000e+00	0.000000e+00	
187	4.000000e-03	0.000000e+00	0.000000e+00	0.000000e+00	
188	4.000000e-03	0.000000e+00	0.000000e+00	0.000000e+00	
189	4.000001e-03	0.000000e+00	0.000000e+00	0.000000e+00	
190	4.000001e-03	0.000000e+00	0.000000e+00	0.000000e+00	
191	4.000001e-03	0.000000e+00	0.000000e+00	0.000000e+00	
192	4.000001e-03	0.000000e+00	0.000000e+00	0.000000e+00	
193	4.000002e-03	0.000000e+00	0.000000e+00	0.000000e+00	
194	4.000002e-03	0.000000e+00	0.000000e+00	0.000000e+00	
195	4.000002e-03	0.000000e+00	0.000000e+00	0.000000e+00	
196	4.000002e-03	0.000000e+00	0.000000e+00	0.000000e+00	
197	4.000002e-03	0.000000e+00	0.000000e+00	0.000000e+00	
198	4.000003e-03	0.000000e+00	0.000000e+00	0.000000e+00	
199	4.000004e-03	0.000000e+00	0.000000e+00	0.000000e+00	
200	4.000005e-03	0.000000e+00	0.000000e+00	0.000000e+00	
201	4.000005e-03	0.000000e+00	0.000000e+00	0.000000e+00	
202	4.000006e-03	0.000000e+00	0.000000e+00	0.000000e+00	
203	4.000006e-03	0.000000e+00	0.000000e+00	0.000000e+00	
204	4.000006e-03	0.000000e+00	0.000000e+00	0.000000e+00	
205	4.000006e-03	0.000000e+00	0.000000e+00	0.000000e+00	
206	4.000006e-03	0.000000e+00	0.000000e+00	0.000000e+00	
207	4.000006e-03	0.000000e+00	0.000000e+00	0.000000e+00	
208	4.000006e-03	0.000000e+00	0.000000e+00	0.000000e+00	
209	4.000006e-03	0.000000e+00	0.000000e+00	0.000000e+00	
210	4.000006e-03	0.000000e+00	0.000000e+00	0.000000e+00	
211	4.000006e-03	0.000000e+00	0.000000e+00	0.000000e+00	
212	4.000006e-03	0.000000e+00	0.000000e+00	0.000000e+00	
213	4.000006e-03	0.000000e+00	0.000000e+00	0.000000e+00	
214	4.000006e-03	0.000000e+00	0.000000e+00	0.000000e+00	
215	4.000006e-03	0.000000e+00	0.000000e+00	0.000000e+00	
216	4.000007e-03	0.000000e+00	0.000000e+00	0.000000e+00	
217	4.000007e-03	0.000000e+00	0.000000e+00	0.000000e+00	
218	4.000007e-03	0.000000e+00	0.000000e+00	0.000000e+00	
219	4.000007e-03	0.000000e+00	0.000000e+00	0.000000e+00	
220	4.000007e-03	0.000000e+00	0.000000e+00	0.000000e+00	
221	4.000007e-03	0.000000e+00	0.000000e+00	0.000000e+00	
222	4.000007e-03	0.000000e+00	0.000000e+00	0.000000e+00	
223	4.000007e-03	0.000000e+00	0.000000e+00	0.000000e+00	
224	4.000007e-03	0.000000e+00	0.000000e+00	0.000000e+00	
225	4.000007e-03	0.000000e+00	0.000000e+00	0.000000e+00	
226	4.000007e-03	0.000000e+00	0.000000e+00	0.000000e+00	
227	4.000007e-03	0.000000e+00	0.000000e+00	0.000000e+00	
228	4.000007e-03	0.000000e+00	0.000000e+00	0.000000e+00	

Index   time            a               b               c               
--------------------------------------------------------------------------------
229	4.000007e-03	0.000000e+00	0.000000e+00	0.000000e+00	
230	4.000007e-03	0.000000e+00	0.000000e+00	0.000000e+00	
231	4.000008e-03	0.000000e+00	0.000000e+00	0.000000e+00	
232	4.000008e-03	0.000000e+00	0.000000e+00	0.000000e+00	
233	4.000008e-03	0.000000e+00	0.000000e+00	0.000000e+00	
234	4.000008e-03	0.000000e+00	0.000000e+00	0.000000e+00	
235	4.000008e-03	0.000000e+00	0.000000e+00	0.000000e+00	
236	4.000008e-03	0.000000e+00	0.000000e+00	0.000000e+00	
237	4.000009e-03	0.000000e+00	0.000000e+00	0.000000e+00	
238	4.000009e-03	0.000000e+00	0.000000e+00	0.000000e+00	
239	4.000009e-03	4.096000e-01	0.000000e+00	0.000000e+00	
240	4.000009e-03	1.228800e+00	0.000000e+00	0.000000e+00	
241	4.000010e-03	2.867200e+00	0.000000e+00	0.000000e+00	
242	4.000010e-03	5.000000e+00	0.000000e+00	0.000000e+00	
243	4.000010e-03	5.000000e+00	0.000000e+00	0.000000e+00	
244	4.000010e-03	5.000000e+00	0.000000e+00	0.000000e+00	
245	4.000010e-03	5.000000e+00	0.000000e+00	0.000000e+00	
246	4.000011e-03	5.000000e+00	0.000000e+00	0.000000e+00	
247	4.000012e-03	5.000000e+00	0.000000e+00	0.000000e+00	
248	4.000014e-03	5.000000e+00	0.000000e+00	0.000000e+00	
249	4.000018e-03	5.000000e+00	0.000000e+00	0.000000e+00	
250	4.000027e-03	5.000000e+00	0.000000e+00	0.000000e+00	
251	4.000043e-03	5.000000e+00	0.000000e+00	0.000000e+00	
252	4.000077e-03	5.000000e+00	0.000000e+00	0.000000e+00	
253	4.000144e-03	5.000000e+00	0.000000e+00	0.000000e+00	
254	4.000278e-03	5.000000e+00	0.000000e+00	0.000000e+00	
255	4.000547e-03	5.000000e+00	0.000000e+00	0.000000e+00	
256	4.001084e-03	5.000000e+00	0.000000e+00	0.000000e+00	
257	4.002157e-03	5.000000e+00	0.000000e+00	0.000000e+00	
258	4.004305e-03	5.000000e+00	0.000000e+00	0.000000e+00	
259	4.008600e-03	5.000000e+00	0.000000e+00	0.000000e+00	
260	4.017190e-03	5.000000e+00	0.000000e+00	0.000000e+00	
261	4.034370e-03	5.000000e+00	0.000000e+00	0.000000e+00	
262	4.068729e-03	5.000000e+00	0.000000e+00	0.000000e+00	
263	4.137449e-03	5.000000e+00	0.000000e+00	0.000000e+00	
264	4.274888e-03	5.000000e+00	0.000000e+00	0.000000e+00	
265	4.549766e-03	5.000000e+00	0.000000e+00	0.000000e+00	
266	5.099522e-03	5.000000e+00	0.000000e+00	0.000000e+00	
267	5.739522e-03	5.000000e+00	0.000000e+00	0.000000e+00	
268	6.000001e-03	5.000000e+00	0.000000e+00	0.000000e+00	
269	6.000001e-03	5.000000e+00	0.000000e+00	0.000000e+00	
270	6.000001e-03	5.000000e+00	0.000000e+00	0.000000e+00	
271	6.000002e-03	5.000000e+00	0.000000e+00	0.000000e+00	
272	6.000002e-03	5.000000e+00	0.000000e+00	0.000000e+00	
273	6.000002e-03	5.000000e+00	0.000000e+00	0.000000e+00	
274	6.000002e-03	5.000000e+00	0.000000e+00	0.000000e+00	
275	6.000003e-03	5.000000e+00	0.000000e+00	0.000000e+00	
276	6.000003e-03	5.000000e+00	0.000000e+00	0.000000e+00	
277	6.000004e-03	5.000000e+00	0.000000e+00	0.000000e+00	
278	6.000007e-03	5.000000e+00	0.000000e+00	0.000000e+00	
279	6.000007e-03	4.550000e+00	0.000000e+00	0.000000e+00	
280	6.000007e-03	3.650000e+00	0.000000e+00	0.000000e+00	
281	6.000007e-03	3.500000e+00	0.000000e+00	0.000000e+00	
282	6.000007e-03	3.320000e+00	0.000000e+00	0.000000e+00	
283	6.000007e-03	2.960000e+00	0.000000e+00	0.000000e+00	
284	6.000007e-03	2.240000e+00	0.000000e+00	0.000000e+00	
285	6.000008e-03	8.000000e-01	0.000000e+00	0.000000e+00	
286	6.000008e-03	5.000000e-01	0.000000e+00	0.000000e+00	

Index   time            a               b               c               
--------------------------------------------------------------------------------
287	6.000008e-03	4.500000e-01	0.000000e+00	0.000000e+00	
288	6.000008e-03	3.500000e-01	0.000000e+00	0.000000e+00	
289	6.000008e-03	1.500000e-01	0.000000e+00	0.000000e+00	
290	6.000008e-03	0.000000e+00	0.000000e+00	0.000000e+00	
291	6.000008e-03	0.000000e+00	4.000000e-02	0.000000e+00	
292	6.000008e-03	0.000000e+00	1.200000e-01	0.000000e+00	
293	6.000008e-03	0.000000e+00	2.800000e-01	0.000000e+00	
294	6.000008e-03	0.000000e+00	5.000000e-01	0.000000e+00	
295	6.000008e-03	0.000000e+00	5.000000e-01	0.000000e+00	
296	6.000008e-03	0.000000e+00	5.000000e-01	0.000000e+00	
297	6.000008e-03	0.000000e+00	5.000000e-01	0.000000e+00	
298	6.000008e-03	0.000000e+00	5.000000e-01	0.000000e+00	
299	6.000008e-03	0.000000e+00	5.000000e-01	0.000000e+00	
300	6.000008e-03	0.000000e+00	5.000000e-01	0.000000e+00	
301	6.000008e-03	0.000000e+00	5.160000e-01	0.000000e+00	
302	6.000008e-03	0.000000e+00	5.480000e-01	0.000000e+00	
303	6.000008e-03	0.000000e+00	6.120000e-01	0.000000e+00	
304	6.000008e-03	0.000000e+00	7.399999e-01	0.000000e+00	
305	6.000008e-03	0.000000e+00	9.959999e-01	0.000000e+00	
306	6.000008e-03	0.000000e+00	1.508000e+00	0.000000e+00	
307	6.000008e-03	0.000000e+00	2.532000e+00	0.000000e+00	
308	6.000009e-03	0.000000e+00	4.579999e+00	0.000000e+00	
309	6.000009e-03	0.000000e+00	5.000000e+00	0.000000e+00	
310	6.000009e-03	0.000000e+00	5.000000e+00	0.000000e+00	
311	6.000009e-03	0.000000e+00	5.000000e+00	0.000000e+00	
312	6.000009e-03	0.000000e+00	5.000000e+00	0.000000e+00	
313	6.000010e-03	0.000000e+00	5.000000e+00	0.000000e+00	
314	6.000011e-03	0.000000e+00	5.000000e+00	0.000000e+00	
315	6.000014e-03	0.000000e+00	5.000000e+00	0.000000e+00	
316	6.000019e-03	0.000000e+00	5.000000e+00	0.000000e+00	
317	6.000030e-03	0.000000e+00	5.000000e+00	0.000000e+00	
318	6.000051e-03	0.000000e+00	5.000000e+00	0.000000e+00	
319	6.000093e-03	0.000000e+00	5.000000e+00	0.000000e+00	
320	6.000177e-03	0.000000e+00	5.000000e+00	0.000000e+00	
321	6.000344e-03	0.000000e+00	5.000000e+00	0.000000e+00	
322	6.000680e-03	0.000000e+00	5.000000e+00	0.000000e+00	
323	6.001351e-03	0.000000e+00	5.000000e+00	0.000000e+00	
324	6.002693e-03	0.000000e+00	5.000000e+00	0.000000e+00	
325	6.005378e-03	0.000000e+00	5.000000e+00	0.000000e+00	
